
T4C70 000:350 SEGGER J-Link V5.10i Log File (0001ms, 0326ms total)
T4C70 000:350 DLL Compiled: Jan 28 2016 09:38:53 (0001ms, 0326ms total)
T4C70 000:350 Logging started @ 2016-04-17 21:10 (0001ms, 0326ms total)
T4C70 000:351 JLINK_SetWarnOutHandler(...) (0000ms, 0326ms total)
T4C70 000:351 JLINK_OpenEx(...)
Firmware: J-Link OpenSDA compiled Oct 13 2015 12:09:57
Hardware: V1.00
S/N: 621000000  returns O.K. (0319ms, 0645ms total)
T4C70 000:670 JLINK_SetErrorOutHandler(...) (0000ms, 0645ms total)
T4C70 000:670 JLINK_ExecCommand("ProjectFile = "E:\Project\PrjMoveCtrl\CodeDev\PrjMoveCtrlCode\build\MDK\kl05_frdm_demo\JLinkSettings.ini"", ...)  returns 0x00 (0001ms, 0646ms total)
T4C70 000:678 JLINK_ExecCommand("Device = MKL05Z32xxx4", ...)Device "MKL05Z32XXX4" selected.  returns 0x00 (0015ms, 0661ms total)
T4C70 000:694 JLINK_ExecCommand("DisableConnectionTimeout", ...)  returns 0x01 (0000ms, 0661ms total)
T4C70 000:694 JLINK_GetHardwareVersion()  returns 0x2710 (0000ms, 0661ms total)
T4C70 000:694 JLINK_GetDLLVersion()  returns 51009 (0000ms, 0661ms total)
T4C70 000:694 JLINK_GetFirmwareString(...) (0000ms, 0661ms total)
T4C70 000:709 JLINK_GetDLLVersion()  returns 51009 (0000ms, 0661ms total)
T4C70 000:709 JLINK_GetCompileDateTime() (0000ms, 0661ms total)
T4C70 000:711 JLINK_GetFirmwareString(...) (0000ms, 0661ms total)
T4C70 000:714 JLINK_GetHardwareVersion()  returns 0x2710 (0000ms, 0661ms total)
T4C70 000:719 JLINK_TIF_Select(JLINKARM_TIF_SWD)  returns 0x00 (0005ms, 0666ms total)
T4C70 000:724 JLINK_SetSpeed(5000) (0001ms, 0667ms total)
T4C70 000:725 JLINK_GetId() >0x108 TIF>Found SWD-DP with ID 0x0BC11477 >0x0D TIF> >0x28 TIF> >0x0D TIF> >0x28 TIF> >0x0D TIF> >0x28 TIF> >0x0D TIF> >0x28 TIF> >0x0D TIF> >0x21 TIF> >0x0D TIF> >0x28 TIF> >0x0D TIF> >0x21 TIF> >0x0D TIF> >0x21 TIF> >0x0D TIF> >0x21 TIF> >0x0D TIF> >0x21 TIF> >0x0D TIF> >0x21 TIF> >0x0D TIF> >0x21 TIF> >0x0D TIF> >0x21 TIF> >0x0D TIF> >0x21 TIF> >0x0D TIF> >0x21 TIF> >0x0D TIF> >0x21 TIF> >0x0D TIF> >0x21 TIF> >0x0D TIF> >0x21 TIF> >0x0D TIF> >0x21 TIF> >0x0D TIF>
 >0x21 TIF> >0x0D TIF> >0x21 TIF> >0x0D TIF> >0x21 TIF> >0x0D TIF> >0x21 TIF> >0x0D TIF> >0x21 TIF> >0x0D TIF> >0x21 TIF> >0x0D TIF> >0x21 TIF> >0x0D TIF> >0x21 TIF> >0x0D TIF> >0x21 TIF> >0x0D TIF> >0x21 TIF> >0x0D TIF> >0x21 TIF> >0x0D TIF> >0x21 TIF> >0x0D TIF> >0x21 TIF> >0x0D TIF> >0x21 TIF> >0x0D TIF> >0x21 TIF> >0x0D TIF> >0x21 TIF> >0x0D TIF> >0x21 TIF> >0x0D TIF> >0x21 TIF> >0x0D TIF> >0x21 TIF> >0x0D TIF> >0x28 TIF> >0x0D TIF> >0x28 TIF> >0x0D TIF> >0x28 TIF> >0x0D TIF> >0x21 TIF> >0x0D TIF>
 >0x21 TIF> >0x108 TIF>Found SWD-DP with ID 0x0BC11477 >0x0D TIF> >0x28 TIF> >0x0D TIF> >0x28 TIF> >0x0D TIF> >0x28 TIF> >0x0D TIF> >0x28 TIF> >0x0D TIF> >0x21 TIF> >0x0D TIF> >0x28 TIF> >0x0D TIF> >0x28 TIF> >0x0D TIF> >0x21 TIF> >0x0D TIF> >0x21 TIF> >0x0D TIF> >0x21 TIF> >0x0D TIF> >0x28 TIF> >0x0D TIF> >0x28 TIF> >0x0D TIF> >0x28 TIF> >0x0D TIF> >0x21 TIF> >0x0D TIF> >0x21 TIF> >0x0D TIF> >0x28 TIF> >0x0D TIF> >0x21 TIF> >0x0D TIF> >0x21 TIF>Found Cortex-M0 r0p0, Little endian.
 -- CPU_ReadMem(4 bytes @ 0xE000EDF0) -- CPU_ReadMem(4 bytes @ 0xE0002000)FPUnit: 2 code (BP) slots and 0 literal slots -- CPU_ReadMem(4 bytes @ 0xE000EDFC) -- CPU_ReadMem(4 bytes @ 0xE0001000) -- CPU_WriteMem(4 bytes @ 0xE0001000)CoreSight components:ROMTbl 0 @ F0002000 -- CPU_ReadMem(16 bytes @ 0xF0002000) -- CPU_ReadMem(16 bytes @ 0xF0000FF0) -- CPU_ReadMem(16 bytes @ 0xF0000FE0)ROMTbl 0 [0]: FFFFE000, CID: B105900D, PID: 000BB932 MTB-M0+ -- CPU_ReadMem(16 bytes @ 0xF0001FF0)
 -- CPU_ReadMem(16 bytes @ 0xF0001FE0)ROMTbl 0 [1]: FFFFF000, CID: B105900D, PID: 0008E000 MTBDWT -- CPU_ReadMem(16 bytes @ 0xE00FFFF0) -- CPU_ReadMem(16 bytes @ 0xE00FFFE0)ROMTbl 0 [2]: F00FD000, CID: B105100D, PID: 000BB4C0 ROM TableROMTbl 1 @ E00FF000 -- CPU_ReadMem(16 bytes @ 0xE00FF000) -- CPU_ReadMem(16 bytes @ 0xE000EFF0) -- CPU_ReadMem(16 bytes @ 0xE000EFE0)ROMTbl 1 [0]: FFF0F000, CID: B105E00D, PID: 000BB008 SCS -- CPU_ReadMem(16 bytes @ 0xE0001FF0) -- CPU_ReadMem(16 bytes @ 0xE0001FE0)
ROMTbl 1 [1]: FFF02000, CID: B105E00D, PID: 000BB00A DWT -- CPU_ReadMem(16 bytes @ 0xE0002FF0) -- CPU_ReadMem(16 bytes @ 0xE0002FE0)ROMTbl 1 [2]: FFF03000, CID: B105E00D, PID: 000BB00B FPB >0x0D TIF> >0x21 TIF>  returns 0x0BC11477 (0206ms, 0873ms total)
T4C70 000:931 JLINK_TIF_Select(JLINKARM_TIF_SWD)  returns 0x00 (0000ms, 0873ms total)
T4C70 000:931 JLINK_JTAG_StoreRaw(..., 0x108 Bits)  returns 0x00 (0000ms, 0873ms total)
T4C70 000:931 JLINK_JTAG_GetU32(BitPos = 227) >0x108 TIF>  returns 0x0BC11477 (0001ms, 0874ms total)
T4C70 000:932 JLINK_JTAG_StoreRaw(..., 0x08 Bits)  returns 0x00 (0000ms, 0874ms total)
T4C70 000:932 JLINK_JTAG_StoreRaw(..., 0x03 Bits)  returns 0x08 (0000ms, 0874ms total)
T4C70 000:932 JLINK_JTAG_StoreRaw(..., 0x28 Bits)  returns 0x0B (0000ms, 0874ms total)
T4C70 000:932 JLINK_JTAG_GetU8(BitPos = 8) >0x33 TIF>  returns 0xB9 (0001ms, 0875ms total)
T4C70 000:933 JLINK_JTAG_GetU32(BitPos = 11)  returns 0x0BC11477 (0000ms, 0875ms total)
T4C70 000:933 JLINK_JTAG_GetU8(BitPos = 43)  returns 0x00 (0000ms, 0875ms total)
T4C70 000:933 JLINK_JTAG_StoreRaw(..., 0x08 Bits)  returns 0x00 (0000ms, 0875ms total)
T4C70 000:933 JLINK_JTAG_StoreRaw(..., 0x03 Bits)  returns 0x08 (0000ms, 0875ms total)
T4C70 000:933 JLINK_JTAG_StoreRaw(..., 0x28 Bits)  returns 0x0B (0000ms, 0875ms total)
T4C70 000:933 JLINK_JTAG_GetU8(BitPos = 8) >0x33 TIF>  returns 0x01 (0001ms, 0876ms total)
T4C70 000:934 JLINK_JTAG_GetU32(BitPos = 11)  returns 0xF0000040 (0000ms, 0876ms total)
T4C70 000:934 JLINK_JTAG_GetU8(BitPos = 43)  returns 0x03 (0000ms, 0876ms total)
T4C70 000:934 JLINK_JTAG_StoreRaw(..., 0x08 Bits)  returns 0x00 (0000ms, 0876ms total)
T4C70 000:934 JLINK_JTAG_StoreRaw(..., 0x03 Bits)  returns 0x08 (0000ms, 0876ms total)
T4C70 000:934 JLINK_JTAG_StoreRaw(..., 0x02 Bits)  returns 0x0B (0000ms, 0876ms total)
T4C70 000:934 JLINK_JTAG_StoreRaw(..., 0x28 Bits)  returns 0x0D (0000ms, 0876ms total)
T4C70 000:934 JLINK_JTAG_GetU8(BitPos = 8) >0x35 TIF>  returns 0x31 (0001ms, 0877ms total)
T4C70 000:935 JLINK_JTAG_StoreRaw(..., 0x08 Bits)  returns 0x00 (0000ms, 0877ms total)
T4C70 000:935 JLINK_JTAG_StoreRaw(..., 0x03 Bits)  returns 0x08 (0000ms, 0877ms total)
T4C70 000:935 JLINK_JTAG_StoreRaw(..., 0x28 Bits)  returns 0x0B (0000ms, 0877ms total)
T4C70 000:935 JLINK_JTAG_GetU8(BitPos = 8) >0x33 TIF>  returns 0x09 (0001ms, 0878ms total)
T4C70 000:936 JLINK_JTAG_GetU32(BitPos = 11)  returns 0xF0000041 (0000ms, 0878ms total)
T4C70 000:936 JLINK_JTAG_GetU8(BitPos = 43)  returns 0x00 (0000ms, 0878ms total)
T4C70 000:937 JLINK_ClrRESET() (0003ms, 0881ms total)
T4C70 001:140 JLINK_JTAG_StoreRaw(..., 0x08 Bits)  returns 0x00 (0000ms, 0881ms total)
T4C70 001:140 JLINK_JTAG_StoreRaw(..., 0x03 Bits)  returns 0x08 (0000ms, 0881ms total)
T4C70 001:140 JLINK_JTAG_StoreRaw(..., 0x02 Bits)  returns 0x0B (0000ms, 0881ms total)
T4C70 001:140 JLINK_JTAG_StoreRaw(..., 0x28 Bits)  returns 0x0D (0000ms, 0881ms total)
T4C70 001:140 JLINK_JTAG_GetU8(BitPos = 8) >0x35 TIF>  returns 0xD1 (0001ms, 0882ms total)
T4C70 001:141 JLINK_JTAG_StoreRaw(..., 0x08 Bits)  returns 0x00 (0000ms, 0882ms total)
T4C70 001:141 JLINK_JTAG_StoreRaw(..., 0x03 Bits)  returns 0x08 (0000ms, 0882ms total)
T4C70 001:141 JLINK_JTAG_StoreRaw(..., 0x02 Bits)  returns 0x0B (0000ms, 0882ms total)
T4C70 001:141 JLINK_JTAG_StoreRaw(..., 0x28 Bits)  returns 0x0D (0000ms, 0882ms total)
T4C70 001:142 JLINK_JTAG_GetU8(BitPos = 8) >0x35 TIF>  returns 0x11 (0000ms, 0882ms total)
T4C70 001:142 JLINK_JTAG_StoreRaw(..., 0x08 Bits)  returns 0x00 (0000ms, 0882ms total)
T4C70 001:142 JLINK_JTAG_StoreRaw(..., 0x03 Bits)  returns 0x08 (0000ms, 0882ms total)
T4C70 001:142 JLINK_JTAG_StoreRaw(..., 0x28 Bits)  returns 0x0B (0000ms, 0882ms total)
T4C70 001:142 JLINK_JTAG_GetU8(BitPos = 8) >0x33 TIF>  returns 0x01 (0001ms, 0883ms total)
T4C70 001:143 JLINK_JTAG_GetU32(BitPos = 11)  returns 0x00000000 (0000ms, 0883ms total)
T4C70 001:143 JLINK_JTAG_GetU8(BitPos = 43)  returns 0x00 (0000ms, 0883ms total)
T4C70 001:143 JLINK_JTAG_StoreRaw(..., 0x08 Bits)  returns 0x00 (0000ms, 0883ms total)
T4C70 001:143 JLINK_JTAG_StoreRaw(..., 0x03 Bits)  returns 0x08 (0001ms, 0884ms total)
T4C70 001:144 JLINK_JTAG_StoreRaw(..., 0x28 Bits)  returns 0x0B (0000ms, 0884ms total)
T4C70 001:144 JLINK_JTAG_GetU8(BitPos = 8) >0x33 TIF>  returns 0x91 (0000ms, 0884ms total)
T4C70 001:144 JLINK_JTAG_GetU32(BitPos = 11)  returns 0x00000032 (0000ms, 0884ms total)
T4C70 001:144 JLINK_JTAG_GetU8(BitPos = 43)  returns 0x03 (0000ms, 0884ms total)
T4C70 001:144 JLINK_GetDeviceFamily()  returns 6 (0000ms, 0884ms total)
T4C70 001:149 JLINK_ReadMem (0xE00FFFF0, 0x0010 Bytes, ...) -- CPU is running -- CPU_ReadMem(16 bytes @ 0xE00FFFF0) - Data: 0D 00 00 00 10 00 00 00 05 00 00 00 B1 00 00 00  returns 0x00 (0002ms, 0886ms total)
T4C70 001:151 JLINK_ReadMem (0xE00FFFD0, 0x0020 Bytes, ...) -- CPU is running -- CPU_ReadMem(32 bytes @ 0xE00FFFD0) - Data: 04 00 00 00 00 00 00 00 00 00 00 00 00 00 00 00 ...  returns 0x00 (0002ms, 0888ms total)
T4C70 001:153 JLINK_ReadMem (0xE00FF000, 0x0018 Bytes, ...) -- CPU is running -- CPU_ReadMem(24 bytes @ 0xE00FF000) - Data: 03 F0 F0 FF 03 20 F0 FF 03 30 F0 FF 00 00 00 00 ...  returns 0x00 (0002ms, 0890ms total)
T4C70 001:155 JLINK_ReadMemU32(0xE000ED00, 0x0001 Items, ...) -- CPU is running -- CPU_ReadMem(4 bytes @ 0xE000ED00) - Data: 00 C6 0C 41  returns 0x01 (0001ms, 0891ms total)
T4C70 001:156 JLINK_SetResetType(JLINKARM_RESET_TYPE_NORMAL)  returns JLINKARM_RESET_TYPE_NORMAL (0000ms, 0891ms total)
T4C70 001:156 JLINK_Reset() -- CPU is running -- CPU_WriteMem(4 bytes @ 0xE000EDF0) -- CPU is running -- CPU_WriteMem(4 bytes @ 0xE000EDFC) >0x35 TIF> -- CPU is running -- CPU_WriteMem(4 bytes @ 0xE000ED0C) -- CPU is running -- CPU_ReadMem(4 bytes @ 0xE000EDF0) -- CPU is running -- CPU_ReadMem(4 bytes @ 0xE000EDF0) -- CPU is running -- CPU_ReadMem(4 bytes @ 0xE000EDF0) -- CPU is running -- CPU_ReadMem(4 bytes @ 0xE000EDF0) -- CPU is running -- CPU_ReadMem(4 bytes @ 0xE000EDF0) -- CPU is running
 -- CPU_ReadMem(4 bytes @ 0xE000EDF0) -- CPU is running -- CPU_ReadMem(4 bytes @ 0xE000EDF0) -- CPU is running -- CPU_ReadMem(4 bytes @ 0xE000EDF0) -- CPU is running -- CPU_ReadMem(4 bytes @ 0xE000EDF0) -- CPU is running -- CPU_ReadMem(4 bytes @ 0xE000EDF0) -- CPU is running -- CPU_ReadMem(4 bytes @ 0xE000EDF0) -- CPU is running -- CPU_ReadMem(4 bytes @ 0xE000EDF0) -- CPU is running -- CPU_ReadMem(4 bytes @ 0xE000EDF0) -- CPU is running -- CPU_ReadMem(4 bytes @ 0xE000EDF0) -- CPU is running
 -- CPU_ReadMem(4 bytes @ 0xE000EDF0) -- CPU is running -- CPU_ReadMem(4 bytes @ 0xE000EDF0) -- CPU is running -- CPU_ReadMem(4 bytes @ 0xE000EDF0) -- CPU is running -- CPU_ReadMem(4 bytes @ 0xE000EDF0) -- CPU is running -- CPU_ReadMem(4 bytes @ 0xE000EDF0) -- CPU is running -- CPU_ReadMem(4 bytes @ 0xE000EDF0) -- CPU is running -- CPU_ReadMem(4 bytes @ 0xE000EDF0) -- CPU is running -- CPU_ReadMem(4 bytes @ 0xE000EDF0) -- CPU is running -- CPU_ReadMem(4 bytes @ 0xE000EDF0) -- CPU is running
 -- CPU_ReadMem(4 bytes @ 0xE000EDF0) -- CPU is running -- CPU_ReadMem(4 bytes @ 0xE000EDF0) -- CPU is running -- CPU_ReadMem(4 bytes @ 0xE000EDF0) -- CPU is running -- CPU_ReadMem(4 bytes @ 0xE000EDF0) -- CPU is running -- CPU_ReadMem(4 bytes @ 0xE000EDF0) -- CPU is running -- CPU_ReadMem(4 bytes @ 0xE000EDF0) -- CPU is running -- CPU_ReadMem(4 bytes @ 0xE000EDF0) -- CPU is running -- CPU_ReadMem(4 bytes @ 0xE000EDF0) -- CPU is running -- CPU_ReadMem(4 bytes @ 0xE000EDF0) -- CPU is running
 -- CPU_ReadMem(4 bytes @ 0xE000EDF0) -- CPU is running -- CPU_ReadMem(4 bytes @ 0xE000EDF0) -- CPU is running -- CPU_ReadMem(4 bytes @ 0xE000EDF0) -- CPU is running -- CPU_ReadMem(4 bytes @ 0xE000EDF0) -- CPU is running -- CPU_ReadMem(4 bytes @ 0xE000EDF0) -- CPU is running -- CPU_ReadMem(4 bytes @ 0xE000EDF0) -- CPU is running -- CPU_ReadMem(4 bytes @ 0xE000EDF0) -- CPU is running -- CPU_ReadMem(4 bytes @ 0xE000EDF0) -- CPU is running -- CPU_ReadMem(4 bytes @ 0xE000EDF0) -- CPU is running
 -- CPU_ReadMem(4 bytes @ 0xE000EDF0) -- CPU is running -- CPU_ReadMem(4 bytes @ 0xE000EDF0) -- CPU is running -- CPU_ReadMem(4 bytes @ 0xE000EDF0) -- CPU is running -- CPU_ReadMem(4 bytes @ 0xE000EDF0) -- CPU is running -- CPU_ReadMem(4 bytes @ 0xE000EDF0) -- CPU is running -- CPU_ReadMem(4 bytes @ 0xE000EDF0) -- CPU is running -- CPU_ReadMem(4 bytes @ 0xE000EDF0) -- CPU is running -- CPU_ReadMem(4 bytes @ 0xE000EDF0) -- CPU is running -- CPU_ReadMem(4 bytes @ 0xE000EDF0) -- CPU is running
 -- CPU_ReadMem(4 bytes @ 0xE000EDF0) -- CPU is running -- CPU_ReadMem(4 bytes @ 0xE000EDF0) -- CPU is running -- CPU_ReadMem(4 bytes @ 0xE000EDF0) -- CPU is running -- CPU_ReadMem(4 bytes @ 0xE000EDF0) -- CPU is running -- CPU_ReadMem(4 bytes @ 0xE000EDF0) -- CPU is running -- CPU_ReadMem(4 bytes @ 0xE000EDF0) -- CPU is running -- CPU_ReadMem(4 bytes @ 0xE000EDF0) -- CPU is running -- CPU_ReadMem(4 bytes @ 0xE000EDF0) -- CPU is running -- CPU_ReadMem(4 bytes @ 0xE000EDF0) -- CPU is running
 -- CPU_ReadMem(4 bytes @ 0xE000EDF0) -- CPU is running -- CPU_ReadMem(4 bytes @ 0xE000EDF0) -- CPU is running -- CPU_ReadMem(4 bytes @ 0xE000EDF0) -- CPU is running -- CPU_ReadMem(4 bytes @ 0xE000EDF0) -- CPU is running -- CPU_ReadMem(4 bytes @ 0xE000EDF0) -- CPU is running -- CPU_ReadMem(4 bytes @ 0xE000EDF0) -- CPU is running -- CPU_ReadMem(4 bytes @ 0xE000EDF0) -- CPU is running -- CPU_ReadMem(4 bytes @ 0xE000EDF0) -- CPU is running -- CPU_ReadMem(4 bytes @ 0xE000EDF0) -- CPU is running
 -- CPU_ReadMem(4 bytes @ 0xE000EDF0) -- CPU is running -- CPU_ReadMem(4 bytes @ 0xE000EDF0) -- CPU is running -- CPU_ReadMem(4 bytes @ 0xE000EDF0) -- CPU is running -- CPU_ReadMem(4 bytes @ 0xE000EDF0) -- CPU is running -- CPU_ReadMem(4 bytes @ 0xE000EDF0) -- CPU is running -- CPU_ReadMem(4 bytes @ 0xE000EDF0) -- CPU is running -- CPU_ReadMem(4 bytes @ 0xE000EDF0) -- CPU is running -- CPU_ReadMem(4 bytes @ 0xE000EDF0) -- CPU is running -- CPU_ReadMem(4 bytes @ 0xE000EDF0) -- CPU is running
 -- CPU_ReadMem(4 bytes @ 0xE000EDF0) -- CPU is running -- CPU_ReadMem(4 bytes @ 0xE000EDF0) -- CPU is running -- CPU_ReadMem(4 bytes @ 0xE000EDF0) -- CPU is running -- CPU_ReadMem(4 bytes @ 0xE000EDF0) -- CPU is running -- CPU_ReadMem(4 bytes @ 0xE000EDF0) -- CPU is running -- CPU_ReadMem(4 bytes @ 0xE000EDF0) -- CPU is running -- CPU_ReadMem(4 bytes @ 0xE000EDF0) -- CPU is running -- CPU_ReadMem(4 bytes @ 0xE000EDF0) -- CPU is running -- CPU_ReadMem(4 bytes @ 0xE000EDF0) -- CPU is running
 -- CPU_ReadMem(4 bytes @ 0xE000EDF0) -- CPU is running -- CPU_ReadMem(4 bytes @ 0xE000EDF0) -- CPU is running -- CPU_ReadMem(4 bytes @ 0xE000EDF0) -- CPU is running -- CPU_ReadMem(4 bytes @ 0xE000EDF0) -- CPU is running -- CPU_ReadMem(4 bytes @ 0xE000EDF0) -- CPU is running -- CPU_ReadMem(4 bytes @ 0xE000EDF0) -- CPU is running -- CPU_ReadMem(4 bytes @ 0xE000EDF0) -- CPU is running -- CPU_ReadMem(4 bytes @ 0xE000EDF0) -- CPU is running -- CPU_ReadMem(4 bytes @ 0xE000EDF0) -- CPU is running
 -- CPU_ReadMem(4 bytes @ 0xE000EDF0) -- CPU is running -- CPU_ReadMem(4 bytes @ 0xE000EDF0) -- CPU is running -- CPU_ReadMem(4 bytes @ 0xE000EDF0) -- CPU is running -- CPU_ReadMem(4 bytes @ 0xE000EDF0) -- CPU is running -- CPU_ReadMem(4 bytes @ 0xE000EDF0) -- CPU is running -- CPU_ReadMem(4 bytes @ 0xE000EDF0) -- CPU is running -- CPU_ReadMem(4 bytes @ 0xE000EDF0) -- CPU is running -- CPU_ReadMem(4 bytes @ 0xE000EDF0) -- CPU is running -- CPU_ReadMem(4 bytes @ 0xE000EDF0) -- CPU is running
 -- CPU_ReadMem(4 bytes @ 0xE000EDF0) -- CPU is running -- CPU_ReadMem(4 bytes @ 0xE000EDF0) -- CPU is running -- CPU_ReadMem(4 bytes @ 0xE000EDF0) -- CPU is running -- CPU_ReadMem(4 bytes @ 0xE000EDF0) -- CPU is running -- CPU_ReadMem(4 bytes @ 0xE000EDF0) -- CPU is running -- CPU_ReadMem(4 bytes @ 0xE000EDF0) -- CPU is running -- CPU_ReadMem(4 bytes @ 0xE000EDF0) -- CPU is running -- CPU_ReadMem(4 bytes @ 0xE000EDF0) -- CPU is running -- CPU_ReadMem(4 bytes @ 0xE000EDF0) -- CPU is running
 -- CPU_ReadMem(4 bytes @ 0xE000EDF0) -- CPU is running -- CPU_ReadMem(4 bytes @ 0xE000EDF0) -- CPU is running -- CPU_ReadMem(4 bytes @ 0xE000EDF0) -- CPU is running -- CPU_ReadMem(4 bytes @ 0xE000EDF0) -- CPU is running -- CPU_ReadMem(4 bytes @ 0xE000EDF0) -- CPU is running -- CPU_ReadMem(4 bytes @ 0xE000EDF0) -- CPU is running -- CPU_ReadMem(4 bytes @ 0xE000EDF0) -- CPU is running -- CPU_ReadMem(4 bytes @ 0xE000EDF0) -- CPU is running -- CPU_ReadMem(4 bytes @ 0xE000EDF0) -- CPU is running
 -- CPU_ReadMem(4 bytes @ 0xE000EDF0) -- CPU is running -- CPU_ReadMem(4 bytes @ 0xE000EDF0) -- CPU is running -- CPU_ReadMem(4 bytes @ 0xE000EDF0) -- CPU is running -- CPU_ReadMem(4 bytes @ 0xE000EDF0) -- CPU is running -- CPU_ReadMem(4 bytes @ 0xE000EDF0) -- CPU is running -- CPU_ReadMem(4 bytes @ 0xE000EDF0) -- CPU is running -- CPU_ReadMem(4 bytes @ 0xE000EDF0) -- CPU is running -- CPU_ReadMem(4 bytes @ 0xE000EDF0) -- CPU is running -- CPU_ReadMem(4 bytes @ 0xE000EDF0) -- CPU is running
 -- CPU_ReadMem(4 bytes @ 0xE000EDF0) -- CPU is running -- CPU_ReadMem(4 bytes @ 0xE000EDF0) -- CPU is running -- CPU_ReadMem(4 bytes @ 0xE000EDF0) -- CPU is running -- CPU_ReadMem(4 bytes @ 0xE000EDF0) -- CPU is running -- CPU_ReadMem(4 bytes @ 0xE000EDF0) -- CPU is running -- CPU_ReadMem(4 bytes @ 0xE000EDF0) -- CPU is running -- CPU_ReadMem(4 bytes @ 0xE000EDF0) -- CPU is running -- CPU_ReadMem(4 bytes @ 0xE000EDF0) -- CPU is running -- CPU_ReadMem(4 bytes @ 0xE000EDF0) -- CPU is running
 -- CPU_ReadMem(4 bytes @ 0xE000EDF0) -- CPU is running -- CPU_ReadMem(4 bytes @ 0xE000EDF0) -- CPU is running -- CPU_ReadMem(4 bytes @ 0xE000EDF0) -- CPU is running -- CPU_ReadMem(4 bytes @ 0xE000EDF0) -- CPU is running -- CPU_ReadMem(4 bytes @ 0xE000EDF0) -- CPU is running -- CPU_ReadMem(4 bytes @ 0xE000EDF0) -- CPU is running -- CPU_ReadMem(4 bytes @ 0xE000EDF0) -- CPU is running -- CPU_ReadMem(4 bytes @ 0xE000EDF0) -- CPU is running -- CPU_ReadMem(4 bytes @ 0xE000EDF0) -- CPU is running
 -- CPU_ReadMem(4 bytes @ 0xE000EDF0) -- CPU is running -- CPU_ReadMem(4 bytes @ 0xE000EDF0) -- CPU is running -- CPU_ReadMem(4 bytes @ 0xE000EDF0) -- CPU is running -- CPU_ReadMem(4 bytes @ 0xE000EDF0) -- CPU is running -- CPU_ReadMem(4 bytes @ 0xE000EDF0) -- CPU is running -- CPU_ReadMem(4 bytes @ 0xE000EDF0) -- CPU is running -- CPU_ReadMem(4 bytes @ 0xE000EDF0) -- CPU is running -- CPU_ReadMem(4 bytes @ 0xE000EDF0) -- CPU is running -- CPU_ReadMem(4 bytes @ 0xE000EDF0) -- CPU is running
 -- CPU_ReadMem(4 bytes @ 0xE000EDF0) -- CPU is running -- CPU_ReadMem(4 bytes @ 0xE000EDF0) -- CPU is running -- CPU_ReadMem(4 bytes @ 0xE000EDF0) -- CPU is running -- CPU_ReadMem(4 bytes @ 0xE000EDF0) -- CPU is running -- CPU_ReadMem(4 bytes @ 0xE000EDF0) -- CPU is running -- CPU_ReadMem(4 bytes @ 0xE000EDF0) -- CPU is running -- CPU_ReadMem(4 bytes @ 0xE000EDF0) -- CPU is running -- CPU_ReadMem(4 bytes @ 0xE000EDF0) -- CPU is running -- CPU_ReadMem(4 bytes @ 0xE000EDF0) -- CPU is running
 -- CPU_ReadMem(4 bytes @ 0xE000EDF0) -- CPU is running -- CPU_ReadMem(4 bytes @ 0xE000EDF0) -- CPU is running -- CPU_ReadMem(4 bytes @ 0xE000EDF0) -- CPU is running -- CPU_ReadMem(4 bytes @ 0xE000EDF0) -- CPU is running -- CPU_ReadMem(4 bytes @ 0xE000EDF0) -- CPU is running -- CPU_ReadMem(4 bytes @ 0xE000EDF0) -- CPU is running -- CPU_ReadMem(4 bytes @ 0xE000EDF0) -- CPU is running -- CPU_ReadMem(4 bytes @ 0xE000EDF0) -- CPU is running -- CPU_ReadMem(4 bytes @ 0xE000EDF0) -- CPU is running
 -- CPU_ReadMem(4 bytes @ 0xE000EDF0) -- CPU is running -- CPU_ReadMem(4 bytes @ 0xE000EDF0) -- CPU is running -- CPU_ReadMem(4 bytes @ 0xE000EDF0) -- CPU is running -- CPU_ReadMem(4 bytes @ 0xE000EDF0) -- CPU is running -- CPU_ReadMem(4 bytes @ 0xE000EDF0) -- CPU is running -- CPU_ReadMem(4 bytes @ 0xE000EDF0) -- CPU is running -- CPU_ReadMem(4 bytes @ 0xE000EDF0) -- CPU is running -- CPU_ReadMem(4 bytes @ 0xE000EDF0) -- CPU is running -- CPU_ReadMem(4 bytes @ 0xE000EDF0) -- CPU is running
 -- CPU_ReadMem(4 bytes @ 0xE000EDF0) -- CPU is running -- CPU_ReadMem(4 bytes @ 0xE000EDF0) -- CPU is running -- CPU_ReadMem(4 bytes @ 0xE000EDF0) -- CPU is running -- CPU_ReadMem(4 bytes @ 0xE000EDF0) -- CPU is running -- CPU_ReadMem(4 bytes @ 0xE000EDF0) -- CPU is running -- CPU_ReadMem(4 bytes @ 0xE000EDF0) -- CPU is running -- CPU_ReadMem(4 bytes @ 0xE000EDF0) -- CPU is running -- CPU_ReadMem(4 bytes @ 0xE000EDF0) -- CPU is running -- CPU_ReadMem(4 bytes @ 0xE000EDF0) -- CPU is running
 -- CPU_ReadMem(4 bytes @ 0xE000EDF0) -- CPU is running -- CPU_ReadMem(4 bytes @ 0xE000EDF0) -- CPU is running -- CPU_ReadMem(4 bytes @ 0xE000EDF0) -- CPU is running -- CPU_ReadMem(4 bytes @ 0xE000EDF0) -- CPU is running -- CPU_ReadMem(4 bytes @ 0xE000EDF0) -- CPU is running -- CPU_ReadMem(4 bytes @ 0xE000EDF0) -- CPU is running -- CPU_ReadMem(4 bytes @ 0xE000EDF0) -- CPU is running -- CPU_ReadMem(4 bytes @ 0xE000EDF0) -- CPU is running -- CPU_ReadMem(4 bytes @ 0xE000EDF0) -- CPU is running
 -- CPU_ReadMem(4 bytes @ 0xE000EDF0) -- CPU is running -- CPU_ReadMem(4 bytes @ 0xE000EDF0) -- CPU is running -- CPU_ReadMem(4 bytes @ 0xE000EDF0) -- CPU is running -- CPU_ReadMem(4 bytes @ 0xE000EDF0) -- CPU is running -- CPU_ReadMem(4 bytes @ 0xE000EDF0) -- CPU is running -- CPU_ReadMem(4 bytes @ 0xE000EDF0) -- CPU is running -- CPU_ReadMem(4 bytes @ 0xE000EDF0) -- CPU is running -- CPU_ReadMem(4 bytes @ 0xE000EDF0) -- CPU is running -- CPU_ReadMem(4 bytes @ 0xE000EDF0) -- CPU is running
 -- CPU_ReadMem(4 bytes @ 0xE000EDF0) -- CPU is running -- CPU_ReadMem(4 bytes @ 0xE000EDF0) -- CPU is running -- CPU_ReadMem(4 bytes @ 0xE000EDF0) -- CPU is running -- CPU_ReadMem(4 bytes @ 0xE000EDF0) -- CPU is running -- CPU_ReadMem(4 bytes @ 0xE000EDF0) -- CPU is running -- CPU_ReadMem(4 bytes @ 0xE000EDF0) -- CPU is running -- CPU_ReadMem(4 bytes @ 0xE000EDF0) -- CPU is running -- CPU_ReadMem(4 bytes @ 0xE000EDF0) -- CPU is running -- CPU_ReadMem(4 bytes @ 0xE000EDF0) -- CPU is running
 -- CPU_ReadMem(4 bytes @ 0xE000EDF0) -- CPU is running -- CPU_ReadMem(4 bytes @ 0xE000EDF0) -- CPU is running -- CPU_ReadMem(4 bytes @ 0xE000EDF0) -- CPU is running -- CPU_ReadMem(4 bytes @ 0xE000EDF0) -- CPU is running -- CPU_ReadMem(4 bytes @ 0xE000EDF0) -- CPU is running -- CPU_ReadMem(4 bytes @ 0xE000EDF0) -- CPU is running -- CPU_ReadMem(4 bytes @ 0xE000EDF0) -- CPU is running -- CPU_ReadMem(4 bytes @ 0xE000EDF0) -- CPU is running -- CPU_ReadMem(4 bytes @ 0xE000EDF0) -- CPU is running
 -- CPU_ReadMem(4 bytes @ 0xE000EDF0) -- CPU is running -- CPU_ReadMem(4 bytes @ 0xE000EDF0) -- CPU is running -- CPU_ReadMem(4 bytes @ 0xE000EDF0) -- CPU is running -- CPU_ReadMem(4 bytes @ 0xE000EDF0) -- CPU is running -- CPU_ReadMem(4 bytes @ 0xE000EDF0) -- CPU is running -- CPU_ReadMem(4 bytes @ 0xE000EDF0) -- CPU is running -- CPU_ReadMem(4 bytes @ 0xE000EDF0) -- CPU is running -- CPU_ReadMem(4 bytes @ 0xE000EDF0) -- CPU is running -- CPU_ReadMem(4 bytes @ 0xE000EDF0) -- CPU is running
 -- CPU_ReadMem(4 bytes @ 0xE000EDF0) -- CPU is running -- CPU_ReadMem(4 bytes @ 0xE000EDF0) -- CPU is running -- CPU_ReadMem(4 bytes @ 0xE000EDF0) -- CPU is running -- CPU_ReadMem(4 bytes @ 0xE000EDF0) -- CPU is running -- CPU_ReadMem(4 bytes @ 0xE000EDF0) -- CPU is running -- CPU_ReadMem(4 bytes @ 0xE000EDF0) -- CPU is running -- CPU_ReadMem(4 bytes @ 0xE000EDF0) -- CPU is running -- CPU_ReadMem(4 bytes @ 0xE000EDF0) -- CPU is running -- CPU_ReadMem(4 bytes @ 0xE000EDF0) -- CPU is running
 -- CPU_ReadMem(4 bytes @ 0xE000EDF0)S_RESET_ST not cleared -- CPU is running -- CPU_WriteMem(4 bytes @ 0xE000EDF0) -- CPU is running -- CPU_WriteMem(4 bytes @ 0xE000EDFC) -- CPU_WriteMem(4 bytes @ 0xE000EDF0) -- CPU_WriteMem(4 bytes @ 0xE000EDFC) -- CPU_ReadMem(4 bytes @ 0xE000EDF0) -- CPU_WriteMem(4 bytes @ 0xE000EDFC) -- CPU_WriteMem(4 bytes @ 0xE000ED0C) -- CPU_ReadMem(4 bytes @ 0xE000EDF0) -- CPU_ReadMem(4 bytes @ 0xE000EDF0) -- CPU_WriteMem(4 bytes @ 0xE000EDF0)
 -- CPU_WriteMem(4 bytes @ 0xE000EDFC) -- CPU is running -- CPU_ReadMem(4 bytes @ 0xE000EDF0) -- CPU_WriteMem(4 bytes @ 0xE0002000) -- CPU_ReadMem(4 bytes @ 0xE000EDFC) -- CPU_ReadMem(4 bytes @ 0xE0001000) -- CPU_WriteMem(4 bytes @ 0xE0001000) (0434ms, 1325ms total)
T4C70 001:591 JLINK_Halt()  returns 0x00 (0000ms, 1325ms total)
T4C70 001:591 JLINK_IsHalted()  returns TRUE (0000ms, 1325ms total)
T4C70 001:591 JLINK_ReadMemU32(0xE000EDF0, 0x0001 Items, ...) -- CPU_ReadMem(4 bytes @ 0xE000EDF0) - Data: 03 00 03 00  returns 0x01 (0001ms, 1326ms total)
T4C70 001:592 JLINK_WriteU32(0xE000EDF0, 0xA05F0003) -- CPU_WriteMem(4 bytes @ 0xE000EDF0)  returns 0x00 (0001ms, 1327ms total)
T4C70 001:593 JLINK_WriteU32(0xE000EDFC, 0x01000000) -- CPU_WriteMem(4 bytes @ 0xE000EDFC)  returns 0x00 (0001ms, 1328ms total)
T4C70 001:610 JLINK_GetHWStatus(...)  returns 0x00 (0001ms, 1329ms total)
T4C70 001:618 JLINK_GetNumBPUnits(Type = 0xFFFFFF00)  returns 0x02 (0000ms, 1329ms total)
T4C70 001:618 JLINK_GetNumBPUnits(Type = 0xF0)  returns 0x2000 (0000ms, 1329ms total)
T4C70 001:618 JLINK_GetNumWPUnits()  returns 0x02 (0000ms, 1329ms total)
T4C70 001:628 JLINK_GetSpeed()  returns 0x595 (0000ms, 1329ms total)
T4C70 001:633 JLINK_ReadMemU32(0xE000E004, 0x0001 Items, ...) -- CPU_ReadMem(4 bytes @ 0xE000E004) - Data: 00 00 00 00  returns 0x01 (0001ms, 1330ms total)
T4C70 001:634 JLINK_Halt()  returns 0x00 (0000ms, 1330ms total)
T4C70 001:635 JLINK_IsHalted()  returns TRUE (0000ms, 1330ms total)
T4C70 001:640 JLINK_WriteMem(0x20000000, 0x05D0 Bytes, ...) - Data: 00 BE 0A E0 0D 78 2D 06 68 40 08 24 40 00 00 D3 ... -- CPU_WriteMem(1488 bytes @ 0x20000000)  returns 0x5D0 (0017ms, 1347ms total)
T4C70 001:657 JLINK_WriteReg(R0, 0x00000000)  returns 0x00 (0000ms, 1347ms total)
T4C70 001:657 JLINK_WriteReg(R1, 0x007A1200)  returns 0x00 (0000ms, 1347ms total)
T4C70 001:657 JLINK_WriteReg(R2, 0x00000001)  returns 0x00 (0000ms, 1347ms total)
T4C70 001:657 JLINK_WriteReg(R3, 0x00000000)  returns 0x00 (0000ms, 1347ms total)
T4C70 001:657 JLINK_WriteReg(R4, 0x00000000)  returns 0x00 (0000ms, 1347ms total)
T4C70 001:657 JLINK_WriteReg(R5, 0x00000000)  returns 0x00 (0000ms, 1347ms total)
T4C70 001:657 JLINK_WriteReg(R6, 0x00000000)  returns 0x00 (0000ms, 1347ms total)
T4C70 001:657 JLINK_WriteReg(R7, 0x00000000)  returns 0x00 (0000ms, 1347ms total)
T4C70 001:657 JLINK_WriteReg(R8, 0x00000000)  returns 0x00 (0000ms, 1347ms total)
T4C70 001:657 JLINK_WriteReg(R9, 0x200005C8)  returns 0x00 (0000ms, 1347ms total)
T4C70 001:657 JLINK_WriteReg(R10, 0x00000000)  returns 0x00 (0000ms, 1347ms total)
T4C70 001:657 JLINK_WriteReg(R11, 0x00000000)  returns 0x00 (0000ms, 1347ms total)
T4C70 001:657 JLINK_WriteReg(R12, 0x00000000)  returns 0x00 (0000ms, 1347ms total)
T4C70 001:657 JLINK_WriteReg(R13 (SP), 0x20000800)  returns 0x00 (0000ms, 1347ms total)
T4C70 001:657 JLINK_WriteReg(R14, 0x20000001)  returns 0x00 (0000ms, 1347ms total)
T4C70 001:657 JLINK_WriteReg(R15 (PC), 0x20000020)  returns 0x00 (0000ms, 1347ms total)
T4C70 001:657 JLINK_WriteReg(XPSR, 0x01000000)  returns 0x00 (0000ms, 1347ms total)
T4C70 001:657 JLINK_WriteReg(MSP, 0x20000800)  returns 0x00 (0000ms, 1347ms total)
T4C70 001:657 JLINK_WriteReg(PSP, 0x20000800)  returns 0x00 (0000ms, 1347ms total)
T4C70 001:657 JLINK_WriteReg(CFBP, 0x00000000)  returns 0x00 (0000ms, 1347ms total)
T4C70 001:657 JLINK_SetBPEx(Addr = 0x20000000, Type = 0xFFFFFFF2) -- CPU_ReadMem(2 bytes @ 0x20000000)  returns 0x00000001 (0002ms, 1349ms total)
T4C70 001:659 JLINK_Go() -- CPU_WriteMem(2 bytes @ 0x20000000) -- CPU_ReadMem(4 bytes @ 0xE0001000) -- CPU_WriteMem(4 bytes @ 0xE0001000) -- CPU_WriteMem(4 bytes @ 0xE0002008) -- CPU_WriteMem(4 bytes @ 0xE000200C) -- CPU_WriteMem(4 bytes @ 0xE0001004) (0010ms, 1359ms total)
T4C70 001:669 JLINK_IsHalted() -- CPU_ReadMem(2 bytes @ 0x20000000)  returns TRUE (0006ms, 1365ms total)
T4C70 001:675 JLINK_ReadReg(R15 (PC))  returns 0x20000000 (0000ms, 1359ms total)
T4C70 001:675 JLINK_ClrBPEx(BPHandle = 0x00000001)  returns 0x00 (0000ms, 1359ms total)
T4C70 001:675 JLINK_ReadReg(R0)  returns 0x00000000 (0000ms, 1359ms total)
T4C70 001:676 JLINK_WriteReg(R0, 0x00000000)  returns 0x00 (0001ms, 1360ms total)
T4C70 001:677 JLINK_WriteReg(R1, 0x00000400)  returns 0x00 (0000ms, 1360ms total)
T4C70 001:677 JLINK_WriteReg(R2, 0x000000FF)  returns 0x00 (0000ms, 1360ms total)
T4C70 001:677 JLINK_WriteReg(R3, 0x00000000)  returns 0x00 (0000ms, 1360ms total)
T4C70 001:677 JLINK_WriteReg(R4, 0x00000000)  returns 0x00 (0000ms, 1360ms total)
T4C70 001:677 JLINK_WriteReg(R5, 0x00000000)  returns 0x00 (0000ms, 1360ms total)
T4C70 001:677 JLINK_WriteReg(R6, 0x00000000)  returns 0x00 (0000ms, 1360ms total)
T4C70 001:677 JLINK_WriteReg(R7, 0x00000000)  returns 0x00 (0000ms, 1360ms total)
T4C70 001:677 JLINK_WriteReg(R8, 0x00000000)  returns 0x00 (0000ms, 1360ms total)
T4C70 001:677 JLINK_WriteReg(R9, 0x200005C8)  returns 0x00 (0000ms, 1360ms total)
T4C70 001:677 JLINK_WriteReg(R10, 0x00000000)  returns 0x00 (0000ms, 1360ms total)
T4C70 001:677 JLINK_WriteReg(R11, 0x00000000)  returns 0x00 (0000ms, 1360ms total)
T4C70 001:677 JLINK_WriteReg(R12, 0x00000000)  returns 0x00 (0000ms, 1360ms total)
T4C70 001:677 JLINK_WriteReg(R13 (SP), 0x20000800)  returns 0x00 (0000ms, 1360ms total)
T4C70 001:677 JLINK_WriteReg(R14, 0x20000001)  returns 0x00 (0000ms, 1360ms total)
T4C70 001:677 JLINK_WriteReg(R15 (PC), 0x20000068)  returns 0x00 (0000ms, 1360ms total)
T4C70 001:677 JLINK_WriteReg(XPSR, 0x01000000)  returns 0x00 (0000ms, 1360ms total)
T4C70 001:677 JLINK_WriteReg(MSP, 0x20000800)  returns 0x00 (0000ms, 1360ms total)
T4C70 001:677 JLINK_WriteReg(PSP, 0x20000800)  returns 0x00 (0000ms, 1360ms total)
T4C70 001:677 JLINK_WriteReg(CFBP, 0x00000000)  returns 0x00 (0000ms, 1360ms total)
T4C70 001:677 JLINK_SetBPEx(Addr = 0x20000000, Type = 0xFFFFFFF2)  returns 0x00000002 (0000ms, 1360ms total)
T4C70 001:677 JLINK_Go() -- CPU_ReadMem(4 bytes @ 0xE0001000) -- CPU_WriteMem(4 bytes @ 0xE0001000) (0006ms, 1366ms total)
T4C70 001:683 JLINK_IsHalted() -- CPU_ReadMem(2 bytes @ 0x20000000)  returns TRUE (0006ms, 1372ms total)
T4C70 001:690 JLINK_ReadReg(R15 (PC))  returns 0x20000000 (0000ms, 1366ms total)
T4C70 001:690 JLINK_ClrBPEx(BPHandle = 0x00000002)  returns 0x00 (0001ms, 1367ms total)
T4C70 001:691 JLINK_ReadReg(R0)  returns 0x00000001 (0000ms, 1367ms total)
T4C70 001:691 JLINK_WriteReg(R0, 0x00000000)  returns 0x00 (0000ms, 1367ms total)
T4C70 001:691 JLINK_WriteReg(R1, 0x00000400)  returns 0x00 (0000ms, 1367ms total)
T4C70 001:691 JLINK_WriteReg(R2, 0x000000FF)  returns 0x00 (0000ms, 1367ms total)
T4C70 001:691 JLINK_WriteReg(R3, 0x00000000)  returns 0x00 (0000ms, 1367ms total)
T4C70 001:691 JLINK_WriteReg(R4, 0x00000000)  returns 0x00 (0000ms, 1367ms total)
T4C70 001:691 JLINK_WriteReg(R5, 0x00000000)  returns 0x00 (0000ms, 1367ms total)
T4C70 001:691 JLINK_WriteReg(R6, 0x00000000)  returns 0x00 (0000ms, 1367ms total)
T4C70 001:691 JLINK_WriteReg(R7, 0x00000000)  returns 0x00 (0000ms, 1367ms total)
T4C70 001:691 JLINK_WriteReg(R8, 0x00000000)  returns 0x00 (0000ms, 1367ms total)
T4C70 001:691 JLINK_WriteReg(R9, 0x200005C8)  returns 0x00 (0000ms, 1367ms total)
T4C70 001:691 JLINK_WriteReg(R10, 0x00000000)  returns 0x00 (0000ms, 1367ms total)
T4C70 001:691 JLINK_WriteReg(R11, 0x00000000)  returns 0x00 (0000ms, 1367ms total)
T4C70 001:691 JLINK_WriteReg(R12, 0x00000000)  returns 0x00 (0000ms, 1367ms total)
T4C70 001:691 JLINK_WriteReg(R13 (SP), 0x20000800)  returns 0x00 (0000ms, 1367ms total)
T4C70 001:691 JLINK_WriteReg(R14, 0x20000001)  returns 0x00 (0000ms, 1367ms total)
T4C70 001:691 JLINK_WriteReg(R15 (PC), 0x200000BC)  returns 0x00 (0000ms, 1367ms total)
T4C70 001:691 JLINK_WriteReg(XPSR, 0x01000000)  returns 0x00 (0000ms, 1367ms total)
T4C70 001:691 JLINK_WriteReg(MSP, 0x20000800)  returns 0x00 (0000ms, 1367ms total)
T4C70 001:691 JLINK_WriteReg(PSP, 0x20000800)  returns 0x00 (0000ms, 1367ms total)
T4C70 001:691 JLINK_WriteReg(CFBP, 0x00000000)  returns 0x00 (0000ms, 1367ms total)
T4C70 001:691 JLINK_SetBPEx(Addr = 0x20000000, Type = 0xFFFFFFF2)  returns 0x00000003 (0000ms, 1367ms total)
T4C70 001:691 JLINK_Go() -- CPU_ReadMem(4 bytes @ 0xE0001000) -- CPU_WriteMem(4 bytes @ 0xE0001000) (0006ms, 1373ms total)
T4C70 001:697 JLINK_IsHalted()  returns FALSE (0001ms, 1374ms total)
T4C70 001:745 JLINK_IsHalted() -- CPU_ReadMem(2 bytes @ 0x20000000)  returns TRUE (0006ms, 1379ms total)
T4C70 001:751 JLINK_ReadReg(R15 (PC))  returns 0x20000000 (0000ms, 1373ms total)
T4C70 001:751 JLINK_ClrBPEx(BPHandle = 0x00000003)  returns 0x00 (0000ms, 1373ms total)
T4C70 001:751 JLINK_ReadReg(R0)  returns 0x00000000 (0000ms, 1373ms total)
T4C70 001:752 JLINK_WriteReg(R0, 0x00000400)  returns 0x00 (0000ms, 1374ms total)
T4C70 001:752 JLINK_WriteReg(R1, 0x00000400)  returns 0x00 (0000ms, 1374ms total)
T4C70 001:752 JLINK_WriteReg(R2, 0x000000FF)  returns 0x00 (0000ms, 1374ms total)
T4C70 001:752 JLINK_WriteReg(R3, 0x00000000)  returns 0x00 (0000ms, 1374ms total)
T4C70 001:752 JLINK_WriteReg(R4, 0x00000000)  returns 0x00 (0000ms, 1374ms total)
T4C70 001:752 JLINK_WriteReg(R5, 0x00000000)  returns 0x00 (0000ms, 1374ms total)
T4C70 001:752 JLINK_WriteReg(R6, 0x00000000)  returns 0x00 (0000ms, 1374ms total)
T4C70 001:752 JLINK_WriteReg(R7, 0x00000000)  returns 0x00 (0000ms, 1374ms total)
T4C70 001:752 JLINK_WriteReg(R8, 0x00000000)  returns 0x00 (0000ms, 1374ms total)
T4C70 001:753 JLINK_WriteReg(R9, 0x200005C8)  returns 0x00 (0000ms, 1375ms total)
T4C70 001:753 JLINK_WriteReg(R10, 0x00000000)  returns 0x00 (0000ms, 1375ms total)
T4C70 001:753 JLINK_WriteReg(R11, 0x00000000)  returns 0x00 (0000ms, 1375ms total)
T4C70 001:753 JLINK_WriteReg(R12, 0x00000000)  returns 0x00 (0000ms, 1375ms total)
T4C70 001:753 JLINK_WriteReg(R13 (SP), 0x20000800)  returns 0x00 (0000ms, 1375ms total)
T4C70 001:753 JLINK_WriteReg(R14, 0x20000001)  returns 0x00 (0000ms, 1375ms total)
T4C70 001:753 JLINK_WriteReg(R15 (PC), 0x20000068)  returns 0x00 (0000ms, 1375ms total)
T4C70 001:753 JLINK_WriteReg(XPSR, 0x01000000)  returns 0x00 (0000ms, 1375ms total)
T4C70 001:753 JLINK_WriteReg(MSP, 0x20000800)  returns 0x00 (0000ms, 1375ms total)
T4C70 001:753 JLINK_WriteReg(PSP, 0x20000800)  returns 0x00 (0000ms, 1375ms total)
T4C70 001:753 JLINK_WriteReg(CFBP, 0x00000000)  returns 0x00 (0000ms, 1375ms total)
T4C70 001:753 JLINK_SetBPEx(Addr = 0x20000000, Type = 0xFFFFFFF2)  returns 0x00000004 (0000ms, 1375ms total)
T4C70 001:753 JLINK_Go() -- CPU_ReadMem(4 bytes @ 0xE0001000) -- CPU_WriteMem(4 bytes @ 0xE0001000) (0005ms, 1380ms total)
T4C70 001:758 JLINK_IsHalted() -- CPU_ReadMem(2 bytes @ 0x20000000)  returns TRUE (0007ms, 1387ms total)
T4C70 001:765 JLINK_ReadReg(R15 (PC))  returns 0x20000000 (0000ms, 1380ms total)
T4C70 001:765 JLINK_ClrBPEx(BPHandle = 0x00000004)  returns 0x00 (0000ms, 1380ms total)
T4C70 001:765 JLINK_ReadReg(R0)  returns 0x00000001 (0000ms, 1380ms total)
T4C70 001:765 JLINK_WriteReg(R0, 0x00000400)  returns 0x00 (0000ms, 1380ms total)
T4C70 001:765 JLINK_WriteReg(R1, 0x00000400)  returns 0x00 (0000ms, 1380ms total)
T4C70 001:765 JLINK_WriteReg(R2, 0x000000FF)  returns 0x00 (0000ms, 1380ms total)
T4C70 001:765 JLINK_WriteReg(R3, 0x00000000)  returns 0x00 (0000ms, 1380ms total)
T4C70 001:765 JLINK_WriteReg(R4, 0x00000000)  returns 0x00 (0000ms, 1380ms total)
T4C70 001:765 JLINK_WriteReg(R5, 0x00000000)  returns 0x00 (0000ms, 1380ms total)
T4C70 001:765 JLINK_WriteReg(R6, 0x00000000)  returns 0x00 (0000ms, 1380ms total)
T4C70 001:765 JLINK_WriteReg(R7, 0x00000000)  returns 0x00 (0000ms, 1380ms total)
T4C70 001:765 JLINK_WriteReg(R8, 0x00000000)  returns 0x00 (0001ms, 1381ms total)
T4C70 001:766 JLINK_WriteReg(R9, 0x200005C8)  returns 0x00 (0000ms, 1381ms total)
T4C70 001:766 JLINK_WriteReg(R10, 0x00000000)  returns 0x00 (0000ms, 1381ms total)
T4C70 001:766 JLINK_WriteReg(R11, 0x00000000)  returns 0x00 (0000ms, 1381ms total)
T4C70 001:766 JLINK_WriteReg(R12, 0x00000000)  returns 0x00 (0000ms, 1381ms total)
T4C70 001:766 JLINK_WriteReg(R13 (SP), 0x20000800)  returns 0x00 (0000ms, 1381ms total)
T4C70 001:766 JLINK_WriteReg(R14, 0x20000001)  returns 0x00 (0000ms, 1381ms total)
T4C70 001:766 JLINK_WriteReg(R15 (PC), 0x200000BC)  returns 0x00 (0000ms, 1381ms total)
T4C70 001:766 JLINK_WriteReg(XPSR, 0x01000000)  returns 0x00 (0000ms, 1381ms total)
T4C70 001:766 JLINK_WriteReg(MSP, 0x20000800)  returns 0x00 (0000ms, 1381ms total)
T4C70 001:766 JLINK_WriteReg(PSP, 0x20000800)  returns 0x00 (0000ms, 1381ms total)
T4C70 001:766 JLINK_WriteReg(CFBP, 0x00000000)  returns 0x00 (0000ms, 1381ms total)
T4C70 001:766 JLINK_SetBPEx(Addr = 0x20000000, Type = 0xFFFFFFF2)  returns 0x00000005 (0000ms, 1381ms total)
T4C70 001:766 JLINK_Go() -- CPU_ReadMem(4 bytes @ 0xE0001000) -- CPU_WriteMem(4 bytes @ 0xE0001000) (0007ms, 1388ms total)
T4C70 001:773 JLINK_IsHalted()  returns FALSE (0001ms, 1389ms total)
T4C70 001:776 JLINK_IsHalted()  returns FALSE (0001ms, 1389ms total)
T4C70 001:778 JLINK_IsHalted()  returns FALSE (0001ms, 1389ms total)
T4C70 001:780 JLINK_IsHalted() -- CPU_ReadMem(2 bytes @ 0x20000000)  returns TRUE (0007ms, 1395ms total)
T4C70 001:787 JLINK_ReadReg(R15 (PC))  returns 0x20000000 (0000ms, 1388ms total)
T4C70 001:787 JLINK_ClrBPEx(BPHandle = 0x00000005)  returns 0x00 (0000ms, 1388ms total)
T4C70 001:787 JLINK_ReadReg(R0)  returns 0x00000000 (0000ms, 1388ms total)
T4C70 001:788 JLINK_WriteReg(R0, 0x00000800)  returns 0x00 (0000ms, 1388ms total)
T4C70 001:788 JLINK_WriteReg(R1, 0x00000400)  returns 0x00 (0000ms, 1388ms total)
T4C70 001:788 JLINK_WriteReg(R2, 0x000000FF)  returns 0x00 (0000ms, 1388ms total)
T4C70 001:788 JLINK_WriteReg(R3, 0x00000000)  returns 0x00 (0000ms, 1388ms total)
T4C70 001:788 JLINK_WriteReg(R4, 0x00000000)  returns 0x00 (0000ms, 1388ms total)
T4C70 001:788 JLINK_WriteReg(R5, 0x00000000)  returns 0x00 (0000ms, 1388ms total)
T4C70 001:788 JLINK_WriteReg(R6, 0x00000000)  returns 0x00 (0000ms, 1388ms total)
T4C70 001:788 JLINK_WriteReg(R7, 0x00000000)  returns 0x00 (0000ms, 1388ms total)
T4C70 001:788 JLINK_WriteReg(R8, 0x00000000)  returns 0x00 (0000ms, 1388ms total)
T4C70 001:788 JLINK_WriteReg(R9, 0x200005C8)  returns 0x00 (0000ms, 1388ms total)
T4C70 001:788 JLINK_WriteReg(R10, 0x00000000)  returns 0x00 (0000ms, 1388ms total)
T4C70 001:788 JLINK_WriteReg(R11, 0x00000000)  returns 0x00 (0000ms, 1388ms total)
T4C70 001:788 JLINK_WriteReg(R12, 0x00000000)  returns 0x00 (0000ms, 1388ms total)
T4C70 001:788 JLINK_WriteReg(R13 (SP), 0x20000800)  returns 0x00 (0000ms, 1388ms total)
T4C70 001:788 JLINK_WriteReg(R14, 0x20000001)  returns 0x00 (0000ms, 1388ms total)
T4C70 001:788 JLINK_WriteReg(R15 (PC), 0x20000068)  returns 0x00 (0000ms, 1388ms total)
T4C70 001:788 JLINK_WriteReg(XPSR, 0x01000000)  returns 0x00 (0000ms, 1388ms total)
T4C70 001:788 JLINK_WriteReg(MSP, 0x20000800)  returns 0x00 (0000ms, 1388ms total)
T4C70 001:788 JLINK_WriteReg(PSP, 0x20000800)  returns 0x00 (0000ms, 1388ms total)
T4C70 001:788 JLINK_WriteReg(CFBP, 0x00000000)  returns 0x00 (0000ms, 1388ms total)
T4C70 001:788 JLINK_SetBPEx(Addr = 0x20000000, Type = 0xFFFFFFF2)  returns 0x00000006 (0000ms, 1388ms total)
T4C70 001:788 JLINK_Go() -- CPU_ReadMem(4 bytes @ 0xE0001000) -- CPU_WriteMem(4 bytes @ 0xE0001000) (0007ms, 1395ms total)
T4C70 001:795 JLINK_IsHalted() -- CPU_ReadMem(2 bytes @ 0x20000000)  returns TRUE (0007ms, 1402ms total)
T4C70 001:802 JLINK_ReadReg(R15 (PC))  returns 0x20000000 (0000ms, 1395ms total)
T4C70 001:802 JLINK_ClrBPEx(BPHandle = 0x00000006)  returns 0x00 (0000ms, 1395ms total)
T4C70 001:802 JLINK_ReadReg(R0)  returns 0x00000001 (0000ms, 1395ms total)
T4C70 001:802 JLINK_WriteReg(R0, 0x00000800)  returns 0x00 (0000ms, 1395ms total)
T4C70 001:802 JLINK_WriteReg(R1, 0x00000400)  returns 0x00 (0000ms, 1395ms total)
T4C70 001:802 JLINK_WriteReg(R2, 0x000000FF)  returns 0x00 (0000ms, 1395ms total)
T4C70 001:802 JLINK_WriteReg(R3, 0x00000000)  returns 0x00 (0000ms, 1395ms total)
T4C70 001:802 JLINK_WriteReg(R4, 0x00000000)  returns 0x00 (0000ms, 1395ms total)
T4C70 001:802 JLINK_WriteReg(R5, 0x00000000)  returns 0x00 (0001ms, 1396ms total)
T4C70 001:803 JLINK_WriteReg(R6, 0x00000000)  returns 0x00 (0000ms, 1396ms total)
T4C70 001:803 JLINK_WriteReg(R7, 0x00000000)  returns 0x00 (0000ms, 1396ms total)
T4C70 001:803 JLINK_WriteReg(R8, 0x00000000)  returns 0x00 (0000ms, 1396ms total)
T4C70 001:803 JLINK_WriteReg(R9, 0x200005C8)  returns 0x00 (0000ms, 1396ms total)
T4C70 001:803 JLINK_WriteReg(R10, 0x00000000)  returns 0x00 (0000ms, 1396ms total)
T4C70 001:803 JLINK_WriteReg(R11, 0x00000000)  returns 0x00 (0000ms, 1396ms total)
T4C70 001:803 JLINK_WriteReg(R12, 0x00000000)  returns 0x00 (0000ms, 1396ms total)
T4C70 001:803 JLINK_WriteReg(R13 (SP), 0x20000800)  returns 0x00 (0000ms, 1396ms total)
T4C70 001:803 JLINK_WriteReg(R14, 0x20000001)  returns 0x00 (0000ms, 1396ms total)
T4C70 001:803 JLINK_WriteReg(R15 (PC), 0x200000BC)  returns 0x00 (0000ms, 1396ms total)
T4C70 001:803 JLINK_WriteReg(XPSR, 0x01000000)  returns 0x00 (0000ms, 1396ms total)
T4C70 001:803 JLINK_WriteReg(MSP, 0x20000800)  returns 0x00 (0000ms, 1396ms total)
T4C70 001:803 JLINK_WriteReg(PSP, 0x20000800)  returns 0x00 (0000ms, 1396ms total)
T4C70 001:803 JLINK_WriteReg(CFBP, 0x00000000)  returns 0x00 (0000ms, 1396ms total)
T4C70 001:803 JLINK_SetBPEx(Addr = 0x20000000, Type = 0xFFFFFFF2)  returns 0x00000007 (0000ms, 1396ms total)
T4C70 001:803 JLINK_Go() -- CPU_ReadMem(4 bytes @ 0xE0001000) -- CPU_WriteMem(4 bytes @ 0xE0001000) (0006ms, 1402ms total)
T4C70 001:809 JLINK_IsHalted()  returns FALSE (0001ms, 1403ms total)
T4C70 001:820 JLINK_IsHalted() -- CPU_ReadMem(2 bytes @ 0x20000000)  returns TRUE (0007ms, 1409ms total)
T4C70 001:827 JLINK_ReadReg(R15 (PC))  returns 0x20000000 (0000ms, 1409ms total)
T4C70 001:827 JLINK_ClrBPEx(BPHandle = 0x00000007)  returns 0x00 (0000ms, 1409ms total)
T4C70 001:827 JLINK_ReadReg(R0)  returns 0x00000000 (0000ms, 1409ms total)
T4C70 001:828 JLINK_WriteReg(R0, 0x00000C00)  returns 0x00 (0000ms, 1409ms total)
T4C70 001:828 JLINK_WriteReg(R1, 0x00000400)  returns 0x00 (0000ms, 1409ms total)
T4C70 001:828 JLINK_WriteReg(R2, 0x000000FF)  returns 0x00 (0000ms, 1409ms total)
T4C70 001:828 JLINK_WriteReg(R3, 0x00000000)  returns 0x00 (0000ms, 1409ms total)
T4C70 001:828 JLINK_WriteReg(R4, 0x00000000)  returns 0x00 (0000ms, 1409ms total)
T4C70 001:828 JLINK_WriteReg(R5, 0x00000000)  returns 0x00 (0000ms, 1409ms total)
T4C70 001:828 JLINK_WriteReg(R6, 0x00000000)  returns 0x00 (0000ms, 1409ms total)
T4C70 001:828 JLINK_WriteReg(R7, 0x00000000)  returns 0x00 (0000ms, 1409ms total)
T4C70 001:828 JLINK_WriteReg(R8, 0x00000000)  returns 0x00 (0000ms, 1409ms total)
T4C70 001:828 JLINK_WriteReg(R9, 0x200005C8)  returns 0x00 (0000ms, 1409ms total)
T4C70 001:828 JLINK_WriteReg(R10, 0x00000000)  returns 0x00 (0000ms, 1409ms total)
T4C70 001:828 JLINK_WriteReg(R11, 0x00000000)  returns 0x00 (0000ms, 1409ms total)
T4C70 001:828 JLINK_WriteReg(R12, 0x00000000)  returns 0x00 (0000ms, 1409ms total)
T4C70 001:828 JLINK_WriteReg(R13 (SP), 0x20000800)  returns 0x00 (0000ms, 1409ms total)
T4C70 001:828 JLINK_WriteReg(R14, 0x20000001)  returns 0x00 (0000ms, 1409ms total)
T4C70 001:828 JLINK_WriteReg(R15 (PC), 0x20000068)  returns 0x00 (0000ms, 1409ms total)
T4C70 001:828 JLINK_WriteReg(XPSR, 0x01000000)  returns 0x00 (0000ms, 1409ms total)
T4C70 001:828 JLINK_WriteReg(MSP, 0x20000800)  returns 0x00 (0000ms, 1409ms total)
T4C70 001:828 JLINK_WriteReg(PSP, 0x20000800)  returns 0x00 (0000ms, 1409ms total)
T4C70 001:828 JLINK_WriteReg(CFBP, 0x00000000)  returns 0x00 (0000ms, 1409ms total)
T4C70 001:828 JLINK_SetBPEx(Addr = 0x20000000, Type = 0xFFFFFFF2)  returns 0x00000008 (0000ms, 1409ms total)
T4C70 001:828 JLINK_Go() -- CPU_ReadMem(4 bytes @ 0xE0001000) -- CPU_WriteMem(4 bytes @ 0xE0001000) (0007ms, 1416ms total)
T4C70 001:835 JLINK_IsHalted() -- CPU_ReadMem(2 bytes @ 0x20000000)  returns TRUE (0007ms, 1423ms total)
T4C70 001:842 JLINK_ReadReg(R15 (PC))  returns 0x20000000 (0000ms, 1416ms total)
T4C70 001:842 JLINK_ClrBPEx(BPHandle = 0x00000008)  returns 0x00 (0000ms, 1416ms total)
T4C70 001:842 JLINK_ReadReg(R0)  returns 0x00000001 (0000ms, 1416ms total)
T4C70 001:842 JLINK_WriteReg(R0, 0x00000C00)  returns 0x00 (0000ms, 1416ms total)
T4C70 001:842 JLINK_WriteReg(R1, 0x00000400)  returns 0x00 (0000ms, 1416ms total)
T4C70 001:842 JLINK_WriteReg(R2, 0x000000FF)  returns 0x00 (0000ms, 1416ms total)
T4C70 001:842 JLINK_WriteReg(R3, 0x00000000)  returns 0x00 (0000ms, 1416ms total)
T4C70 001:842 JLINK_WriteReg(R4, 0x00000000)  returns 0x00 (0000ms, 1416ms total)
T4C70 001:842 JLINK_WriteReg(R5, 0x00000000)  returns 0x00 (0000ms, 1416ms total)
T4C70 001:842 JLINK_WriteReg(R6, 0x00000000)  returns 0x00 (0000ms, 1416ms total)
T4C70 001:842 JLINK_WriteReg(R7, 0x00000000)  returns 0x00 (0000ms, 1416ms total)
T4C70 001:842 JLINK_WriteReg(R8, 0x00000000)  returns 0x00 (0000ms, 1416ms total)
T4C70 001:842 JLINK_WriteReg(R9, 0x200005C8)  returns 0x00 (0000ms, 1416ms total)
T4C70 001:842 JLINK_WriteReg(R10, 0x00000000)  returns 0x00 (0000ms, 1416ms total)
T4C70 001:842 JLINK_WriteReg(R11, 0x00000000)  returns 0x00 (0000ms, 1416ms total)
T4C70 001:842 JLINK_WriteReg(R12, 0x00000000)  returns 0x00 (0000ms, 1416ms total)
T4C70 001:842 JLINK_WriteReg(R13 (SP), 0x20000800)  returns 0x00 (0000ms, 1416ms total)
T4C70 001:842 JLINK_WriteReg(R14, 0x20000001)  returns 0x00 (0000ms, 1416ms total)
T4C70 001:842 JLINK_WriteReg(R15 (PC), 0x200000BC)  returns 0x00 (0001ms, 1417ms total)
T4C70 001:843 JLINK_WriteReg(XPSR, 0x01000000)  returns 0x00 (0000ms, 1417ms total)
T4C70 001:843 JLINK_WriteReg(MSP, 0x20000800)  returns 0x00 (0000ms, 1417ms total)
T4C70 001:843 JLINK_WriteReg(PSP, 0x20000800)  returns 0x00 (0000ms, 1417ms total)
T4C70 001:843 JLINK_WriteReg(CFBP, 0x00000000)  returns 0x00 (0000ms, 1417ms total)
T4C70 001:843 JLINK_SetBPEx(Addr = 0x20000000, Type = 0xFFFFFFF2)  returns 0x00000009 (0000ms, 1417ms total)
T4C70 001:843 JLINK_Go() -- CPU_ReadMem(4 bytes @ 0xE0001000) -- CPU_WriteMem(4 bytes @ 0xE0001000) (0006ms, 1423ms total)
T4C70 001:849 JLINK_IsHalted()  returns FALSE (0001ms, 1424ms total)
T4C70 001:851 JLINK_IsHalted()  returns FALSE (0001ms, 1424ms total)
T4C70 001:853 JLINK_IsHalted()  returns FALSE (0001ms, 1424ms total)
T4C70 001:855 JLINK_IsHalted()  returns FALSE (0001ms, 1424ms total)
T4C70 001:857 JLINK_IsHalted()  returns FALSE (0000ms, 1423ms total)
T4C70 001:860 JLINK_IsHalted() -- CPU_ReadMem(2 bytes @ 0x20000000)  returns TRUE (0006ms, 1429ms total)
T4C70 001:866 JLINK_ReadReg(R15 (PC))  returns 0x20000000 (0000ms, 1423ms total)
T4C70 001:866 JLINK_ClrBPEx(BPHandle = 0x00000009)  returns 0x00 (0000ms, 1423ms total)
T4C70 001:866 JLINK_ReadReg(R0)  returns 0x00000000 (0000ms, 1423ms total)
T4C70 001:867 JLINK_WriteReg(R0, 0x00001000)  returns 0x00 (0000ms, 1424ms total)
T4C70 001:867 JLINK_WriteReg(R1, 0x00000400)  returns 0x00 (0000ms, 1424ms total)
T4C70 001:867 JLINK_WriteReg(R2, 0x000000FF)  returns 0x00 (0000ms, 1424ms total)
T4C70 001:867 JLINK_WriteReg(R3, 0x00000000)  returns 0x00 (0000ms, 1424ms total)
T4C70 001:867 JLINK_WriteReg(R4, 0x00000000)  returns 0x00 (0000ms, 1424ms total)
T4C70 001:867 JLINK_WriteReg(R5, 0x00000000)  returns 0x00 (0000ms, 1424ms total)
T4C70 001:867 JLINK_WriteReg(R6, 0x00000000)  returns 0x00 (0000ms, 1424ms total)
T4C70 001:867 JLINK_WriteReg(R7, 0x00000000)  returns 0x00 (0000ms, 1424ms total)
T4C70 001:867 JLINK_WriteReg(R8, 0x00000000)  returns 0x00 (0000ms, 1424ms total)
T4C70 001:867 JLINK_WriteReg(R9, 0x200005C8)  returns 0x00 (0000ms, 1424ms total)
T4C70 001:867 JLINK_WriteReg(R10, 0x00000000)  returns 0x00 (0000ms, 1424ms total)
T4C70 001:867 JLINK_WriteReg(R11, 0x00000000)  returns 0x00 (0000ms, 1424ms total)
T4C70 001:867 JLINK_WriteReg(R12, 0x00000000)  returns 0x00 (0000ms, 1424ms total)
T4C70 001:867 JLINK_WriteReg(R13 (SP), 0x20000800)  returns 0x00 (0001ms, 1425ms total)
T4C70 001:868 JLINK_WriteReg(R14, 0x20000001)  returns 0x00 (0000ms, 1425ms total)
T4C70 001:868 JLINK_WriteReg(R15 (PC), 0x20000068)  returns 0x00 (0000ms, 1425ms total)
T4C70 001:868 JLINK_WriteReg(XPSR, 0x01000000)  returns 0x00 (0000ms, 1425ms total)
T4C70 001:868 JLINK_WriteReg(MSP, 0x20000800)  returns 0x00 (0000ms, 1425ms total)
T4C70 001:868 JLINK_WriteReg(PSP, 0x20000800)  returns 0x00 (0000ms, 1425ms total)
T4C70 001:868 JLINK_WriteReg(CFBP, 0x00000000)  returns 0x00 (0000ms, 1425ms total)
T4C70 001:868 JLINK_SetBPEx(Addr = 0x20000000, Type = 0xFFFFFFF2)  returns 0x0000000A (0000ms, 1425ms total)
T4C70 001:868 JLINK_Go() -- CPU_ReadMem(4 bytes @ 0xE0001000) -- CPU_WriteMem(4 bytes @ 0xE0001000) (0006ms, 1431ms total)
T4C70 001:874 JLINK_IsHalted() -- CPU_ReadMem(2 bytes @ 0x20000000)  returns TRUE (0007ms, 1438ms total)
T4C70 001:881 JLINK_ReadReg(R15 (PC))  returns 0x20000000 (0000ms, 1431ms total)
T4C70 001:881 JLINK_ClrBPEx(BPHandle = 0x0000000A)  returns 0x00 (0000ms, 1431ms total)
T4C70 001:881 JLINK_ReadReg(R0)  returns 0x00000001 (0000ms, 1431ms total)
T4C70 001:881 JLINK_WriteReg(R0, 0x00001000)  returns 0x00 (0000ms, 1431ms total)
T4C70 001:881 JLINK_WriteReg(R1, 0x00000400)  returns 0x00 (0000ms, 1431ms total)
T4C70 001:881 JLINK_WriteReg(R2, 0x000000FF)  returns 0x00 (0000ms, 1431ms total)
T4C70 001:881 JLINK_WriteReg(R3, 0x00000000)  returns 0x00 (0000ms, 1431ms total)
T4C70 001:881 JLINK_WriteReg(R4, 0x00000000)  returns 0x00 (0000ms, 1431ms total)
T4C70 001:881 JLINK_WriteReg(R5, 0x00000000)  returns 0x00 (0000ms, 1431ms total)
T4C70 001:881 JLINK_WriteReg(R6, 0x00000000)  returns 0x00 (0000ms, 1431ms total)
T4C70 001:881 JLINK_WriteReg(R7, 0x00000000)  returns 0x00 (0000ms, 1431ms total)
